
T336C 000:049 SEGGER J-Link V6.00d Log File (0001ms, 0031ms total)
T336C 000:049 DLL Compiled: Jul 29 2016 19:07:54 (0001ms, 0031ms total)
T336C 000:049 Logging started @ 2017-03-13 01:26 (0001ms, 0031ms total)
T336C 000:050 JLINK_SetWarnOutHandler(...) (0000ms, 0031ms total)
T336C 000:050 JLINK_OpenEx(...)
Firmware: J-Link Lite-XMC4200 Rev.1 compiled Jan 14 2016 11:19:27
Hardware: V1.00
S/N: 591066192  returns O.K. (0022ms, 0053ms total)
T336C 000:072 JLINK_SetErrorOutHandler(...) (0000ms, 0053ms total)
T336C 000:072 JLINK_ExecCommand("ProjectFile = "C:\Workspaces\DAVE-4.3-64Bit\WS_2016_09_02\Digital_Combination_Lock_Donal_Doherty\JLinkSettings.ini"", ...).   returns 0x00 (0120ms, 0173ms total)
T336C 000:192 JLINK_ExecCommand("Device = XMC1100-Q024x0064", ...). Device "XMC1100-0064" selected.  returns 0x00 (0000ms, 0173ms total)
T336C 000:192 JLINK_ExecCommand("DisableConnectionTimeout", ...).   returns 0x01 (0000ms, 0173ms total)
T336C 000:192 JLINK_GetHardwareVersion()  returns 0x2710 (0000ms, 0173ms total)
T336C 000:192 JLINK_GetDLLVersion()  returns 60004 (0000ms, 0173ms total)
T336C 000:193 JLINK_GetFirmwareString(...) (0000ms, 0174ms total)
T336C 000:193 JLINK_GetDLLVersion()  returns 60004 (0000ms, 0174ms total)
T336C 000:193 JLINK_GetCompileDateTime() (0000ms, 0174ms total)
T336C 000:193 JLINK_GetFirmwareString(...) (0000ms, 0174ms total)
T336C 000:193 JLINK_GetHardwareVersion()  returns 0x2710 (0000ms, 0174ms total)
T336C 000:193 JLINK_TIF_Select(JLINKARM_TIF_SWD)  returns 0x00 (0004ms, 0178ms total)
T336C 000:197 JLINK_SetSpeed(5000) (0001ms, 0179ms total)
T336C 000:198 JLINK_GetId()Performing XMC1000 connection sequence.Firmware of connected J-Link (S/N 591066192) is too old and does not support connect for this device. Debugging may not be reliableTrying to identify target via SPD >0x108 TIF>Could not identify target via SPD. Trying again via SWD. >0x108 TIF>Found SWD-DP with ID 0x0BB11477 >0x0D TIF> >0x28 TIF> >0x0D TIF> >0x28 TIF> >0x0D TIF> >0x28 TIF> >0x0D TIF> >0x28 TIF> >0x0D TIF> >0x21 TIF> >0x0D TIF> >0x28 TIF> >0x0D TIF> >0x28 TIF> >0x0D TIF>
 >0x21 TIF> >0x0D TIF> >0x21 TIF> >0x0D TIF> >0x21 TIF>AP-IDR: 0x04770021, Type: AHB-AP >0x0D TIF> >0x28 TIF> >0x0D TIF> >0x28 TIF> >0x0D TIF> >0x28 TIF> >0x0D TIF> >0x21 TIF> >0x0D TIF> >0x21 TIF> >0x0D TIF> >0x28 TIF> >0x0D TIF> >0x21 TIF> >0x0D TIF> >0x21 TIF>Found Cortex-M0 r0p0, Little endian. -- CPU_ReadMem(4 bytes @ 0xE000EDF0) -- CPU_ReadMem(4 bytes @ 0xE0002000)FPUnit: 4 code (BP) slots and 0 literal slots -- CPU_ReadMem(4 bytes @ 0xE000EDFC) -- CPU_ReadMem(4 bytes @ 0xE0001000)
 -- CPU_WriteMem(4 bytes @ 0xE0001000)CoreSight components:ROMTbl 0 @ F0000000 -- CPU_ReadMem(16 bytes @ 0xF0000000) -- CPU_ReadMem(16 bytes @ 0xE00FFFF0) -- CPU_ReadMem(16 bytes @ 0xE00FFFE0)ROMTbl 0 [0]: F00FF000, CID: B105100D, PID: 000BB471 ROM TableROMTbl 1 @ E00FF000 -- CPU_ReadMem(16 bytes @ 0xE00FF000) -- CPU_ReadMem(16 bytes @ 0xE000EFF0) -- CPU_ReadMem(16 bytes @ 0xE000EFE0)ROMTbl 1 [0]: FFF0F000, CID: B105E00D, PID: 000BB008 SCS -- CPU_ReadMem(16 bytes @ 0xE0001FF0)
 -- CPU_ReadMem(16 bytes @ 0xE0001FE0)ROMTbl 1 [1]: FFF02000, CID: B105E00D, PID: 000BB00A DWT -- CPU_ReadMem(16 bytes @ 0xE0002FF0) -- CPU_ReadMem(16 bytes @ 0xE0002FE0)ROMTbl 1 [2]: FFF03000, CID: B105E00D, PID: 000BB00B FPB >0x0D TIF> >0x21 TIF>  returns 0x0BB11477 (0062ms, 0241ms total)
T336C 000:260 JLINK_GetDLLVersion()  returns 60004 (0000ms, 0241ms total)
T336C 000:260 JLINK_CORE_GetFound()  returns 0x60000FF (0000ms, 0241ms total)
T336C 000:260 JLINK_GetDebugInfo(0x100) -- Value=0xF0000000  returns 0x00 (0000ms, 0241ms total)
T336C 000:260 JLINK_GetDebugInfo(0x100) -- Value=0xF0000000  returns 0x00 (0000ms, 0241ms total)
T336C 000:260 JLINK_GetDebugInfo(0x101) -- Value=0x00000000  returns 0x00 (0000ms, 0241ms total)
T336C 000:260 JLINK_ReadMem (0xE0041FF0, 0x0010 Bytes, ...) -- CPU is running -- CPU_ReadMem(16 bytes @ 0xE0041FF0) - Data: 00 00 00 00 00 00 00 00 00 00 00 00 00 00 00 00  returns 0x00 (0001ms, 0242ms total)
T336C 000:261 JLINK_GetDebugInfo(0x102) -- Value=0x00000000  returns 0x00 (0000ms, 0242ms total)
T336C 000:261 JLINK_GetDebugInfo(0x103) -- Value=0x00000000  returns 0x00 (0000ms, 0242ms total)
T336C 000:261 JLINK_ReadMem (0xE0040FF0, 0x0010 Bytes, ...) -- CPU is running -- CPU_ReadMem(16 bytes @ 0xE0040FF0) - Data: 00 00 00 00 00 00 00 00 00 00 00 00 00 00 00 00  returns 0x00 (0001ms, 0243ms total)
T336C 000:262 JLINK_GetDebugInfo(0x104) -- Value=0xE0000000  returns 0x00 (0000ms, 0243ms total)
T336C 000:262 JLINK_GetDebugInfo(0x105) -- Value=0xE0001000  returns 0x00 (0000ms, 0243ms total)
T336C 000:262 JLINK_GetDebugInfo(0x106) -- Value=0xE0002000  returns 0x00 (0000ms, 0243ms total)
T336C 000:262 JLINK_GetDebugInfo(0x107) -- Value=0xE000E000  returns 0x00 (0000ms, 0243ms total)
T336C 000:262 JLINK_GetDebugInfo(0x10C) -- Value=0xE000EDF0  returns 0x00 (0000ms, 0243ms total)
T336C 000:262 JLINK_ReadMemU32(0xE000ED00, 0x0001 Items, ...) -- CPU is running -- CPU_ReadMem(4 bytes @ 0xE000ED00) - Data: 00 C2 0C 41  returns 0x01 (0001ms, 0244ms total)
T336C 000:263 JLINK_SetResetType(JLINKARM_RESET_TYPE_NORMAL)  returns JLINKARM_RESET_TYPE_NORMAL (0000ms, 0244ms total)
T336C 000:263 JLINK_Reset()Performing XMC1000 reset -- CPU_ReadMem(4 bytes @ 0x10001004) -- CPU_WriteMem(4 bytes @ 0xE0002000) -- CPU_ReadMem(4 bytes @ 0xE0002008) -- CPU_WriteMem(4 bytes @ 0xE0002008) -- CPU_WriteMem(4 bytes @ 0xE000ED0C) -- CPU is running -- CPU_WriteMem(4 bytes @ 0xE0002008) -- CPU_WriteMem(4 bytes @ 0xE0002000) -- CPU_ReadMem(4 bytes @ 0xE000EDFC) -- CPU_ReadMem(4 bytes @ 0xE0001000) -- CPU_WriteMem(4 bytes @ 0xE0001000) (0040ms, 0284ms total)
T336C 000:303 JLINK_ReadReg(R15 (PC))  returns 0x100010BC (0000ms, 0284ms total)
T336C 000:303 JLINK_ReadReg(XPSR)  returns 0x61000000 (0000ms, 0284ms total)
T336C 000:303 JLINK_Halt()  returns 0x00 (0000ms, 0284ms total)
T336C 000:303 JLINK_IsHalted()  returns TRUE (0000ms, 0284ms total)
T336C 000:303 JLINK_ReadMemU32(0xE000EDF0, 0x0001 Items, ...) -- CPU_ReadMem(4 bytes @ 0xE000EDF0) - Data: 03 00 03 00  returns 0x01 (0001ms, 0285ms total)
T336C 000:304 JLINK_WriteU32(0xE000EDF0, 0xA05F0003) -- CPU_WriteMem(4 bytes @ 0xE000EDF0)  returns 0x00 (0001ms, 0286ms total)
T336C 000:305 JLINK_WriteU32(0xE000EDFC, 0x01000000) -- CPU_WriteMem(4 bytes @ 0xE000EDFC)  returns 0x00 (0001ms, 0287ms total)
T336C 000:306 JLINK_GetHWStatus(...)  returns 0x00 (0001ms, 0288ms total)
T336C 000:307 JLINK_GetNumBPUnits(Type = 0xFFFFFF00)  returns 0x04 (0000ms, 0288ms total)
T336C 000:307 JLINK_GetNumBPUnits(Type = 0xF0)  returns 0x2000 (0000ms, 0288ms total)
T336C 000:307 JLINK_GetNumWPUnits()  returns 0x02 (0000ms, 0288ms total)
T336C 000:307 JLINK_GetSpeed()  returns 0xBB8 (0000ms, 0288ms total)
T336C 000:307 JLINK_ReadMemU32(0xE000E004, 0x0001 Items, ...) -- CPU_ReadMem(4 bytes @ 0xE000E004) - Data: 00 00 00 00  returns 0x01 (0001ms, 0289ms total)
T336C 000:308 JLINK_ReadReg(R15 (PC))  returns 0x100010BC (0000ms, 0289ms total)
T336C 000:308 JLINK_ReadReg(XPSR)  returns 0x61000000 (0000ms, 0289ms total)
T336C 000:389 JLINK_SetResetType(JLINKARM_RESET_TYPE_NORMAL)  returns JLINKARM_RESET_TYPE_NORMAL (0000ms, 0289ms total)
T336C 000:389 JLINK_Reset()Performing XMC1000 reset -- CPU_ReadMem(4 bytes @ 0x10001004) -- CPU_WriteMem(4 bytes @ 0xE0002000) -- CPU_ReadMem(4 bytes @ 0xE0002008) -- CPU_WriteMem(4 bytes @ 0xE0002008) -- CPU_WriteMem(4 bytes @ 0xE000ED0C) -- CPU is running -- CPU_WriteMem(4 bytes @ 0xE0002008) -- CPU_WriteMem(4 bytes @ 0xE0002000) -- CPU_ReadMem(4 bytes @ 0xE000EDFC) -- CPU_ReadMem(4 bytes @ 0xE0001000) -- CPU_WriteMem(4 bytes @ 0xE0001000) (0035ms, 0324ms total)
T336C 000:424 JLINK_ReadReg(R15 (PC))  returns 0x100010BC (0000ms, 0324ms total)
T336C 000:424 JLINK_ReadReg(XPSR)  returns 0x61000000 (0000ms, 0324ms total)
T336C 000:425 JLINK_ReadMem (0x10000FBC, 0x003C Bytes, ...) -- CPU_ReadMem(60 bytes @ 0x10000FBC) - Data: 02 02 02 01 01 01 01 01 01 01 01 01 01 01 00 00 ...  returns 0x00 (0001ms, 0325ms total)
T336C 000:426 JLINK_ReadMem (0x10000FF8, 0x0008 Bytes, ...) -- CPU_ReadMem(8 bytes @ 0x10000FF8) - Data: 01 04 00 20 00 00 00 00  returns 0x00 (0001ms, 0326ms total)
T336C 000:427 JLINK_ReadMem (0x10001000, 0x0034 Bytes, ...) -- CPU_ReadMem(64 bytes @ 0x10001000) -- Updating C cache (64 bytes @ 0x10001000) -- Read from C cache (52 bytes @ 0x10001000) - Data: 08 09 00 20 BD 10 00 10 00 00 00 00 00 00 00 00 ...  returns 0x00 (0001ms, 0327ms total)
T336C 000:428 JLINK_ReadMem (0x10001034, 0x003C Bytes, ...) -- CPU_ReadMem(64 bytes @ 0x10001040) -- Updating C cache (64 bytes @ 0x10001040) -- Read from C cache (60 bytes @ 0x10001034) - Data: AC 42 01 D1 00 F0 30 F8 7E 46 0F 3E 0F CC B6 46 ...  returns 0x00 (0002ms, 0329ms total)
T336C 000:430 JLINK_ReadMem (0x10001070, 0x003C Bytes, ...) -- CPU_ReadMem(64 bytes @ 0x10001080) -- Updating C cache (64 bytes @ 0x10001080) -- Read from C cache (60 bytes @ 0x10001070) - Data: 04 68 0C 60 70 47 00 00 00 23 00 24 00 25 00 26 ...  returns 0x00 (0001ms, 0330ms total)
T336C 000:431 JLINK_ReadMem (0x100010AC, 0x003C Bytes, ...) -- CPU_ReadMem(64 bytes @ 0x100010C0) -- Updating C cache (64 bytes @ 0x100010C0) -- Read from C cache (60 bytes @ 0x100010AC) - Data: F8 F8 03 B4 FF F7 F2 FF 03 BC 00 F0 FF F8 00 00 ...  returns 0x00 (0001ms, 0331ms total)
T336C 000:559 JLINK_ReadMem (0x48040100, 0x0008 Bytes, ...) -- CPU_ReadMem(8 bytes @ 0x48040100) - Data: 00 00 00 00 00 00 00 00  returns 0x00 (0001ms, 0332ms total)
T336C 000:560 JLINK_ReadMem (0x48040108, 0x0004 Bytes, ...) -- CPU_ReadMem(4 bytes @ 0x48040108) - Data: 00 00 00 00  returns 0x00 (0001ms, 0333ms total)
T336C 000:561 JLINK_ReadMem (0x48040114, 0x0028 Bytes, ...) -- CPU_ReadMem(40 bytes @ 0x48040114) - Data: 00 00 00 00 00 00 00 00 00 00 00 00 00 00 00 00 ...  returns 0x00 (0001ms, 0334ms total)
T336C 000:562 JLINK_ReadMem (0x4804013C, 0x0004 Bytes, ...) -- CPU_ReadMem(4 bytes @ 0x4804013C) - Data: 00 00 00 00  returns 0x00 (0001ms, 0335ms total)
T336C 000:563 JLINK_ReadMem (0x48040170, 0x0004 Bytes, ...) -- CPU_ReadMem(4 bytes @ 0x48040170) - Data: 00 00 00 00  returns 0x00 (0001ms, 0336ms total)
T336C 000:564 JLINK_ReadMem (0x480401A0, 0x0008 Bytes, ...) -- CPU_ReadMem(8 bytes @ 0x480401A0) - Data: 00 00 00 00 00 00 00 00  returns 0x00 (0001ms, 0337ms total)
T336C 000:565 JLINK_ReadMem (0x480401A8, 0x0004 Bytes, ...) -- CPU_ReadMem(4 bytes @ 0x480401A8) - Data: 00 00 00 00  returns 0x00 (0001ms, 0338ms total)
T336C 000:622 JLINK_ReadMem (0x48040200, 0x0008 Bytes, ...) -- CPU_ReadMem(8 bytes @ 0x48040200) - Data: 00 00 00 00 00 00 00 00  returns 0x00 (0002ms, 0340ms total)
T336C 000:624 JLINK_ReadMem (0x48040208, 0x0004 Bytes, ...) -- CPU_ReadMem(4 bytes @ 0x48040208) - Data: 00 00 00 00  returns 0x00 (0001ms, 0341ms total)
T336C 000:625 JLINK_ReadMem (0x48040214, 0x0028 Bytes, ...) -- CPU_ReadMem(40 bytes @ 0x48040214) - Data: 00 00 00 00 00 00 00 00 00 00 00 00 00 00 00 00 ...  returns 0x00 (0001ms, 0342ms total)
T336C 000:626 JLINK_ReadMem (0x4804023C, 0x0004 Bytes, ...) -- CPU_ReadMem(4 bytes @ 0x4804023C) - Data: 00 00 00 00  returns 0x00 (0001ms, 0343ms total)
T336C 000:627 JLINK_ReadMem (0x48040270, 0x0004 Bytes, ...) -- CPU_ReadMem(4 bytes @ 0x48040270) - Data: 00 00 00 00  returns 0x00 (0001ms, 0344ms total)
T336C 000:628 JLINK_ReadMem (0x480402A0, 0x0008 Bytes, ...) -- CPU_ReadMem(8 bytes @ 0x480402A0) - Data: 00 00 00 00 00 00 00 00  returns 0x00 (0001ms, 0345ms total)
T336C 000:629 JLINK_ReadMem (0x480402A8, 0x0004 Bytes, ...) -- CPU_ReadMem(4 bytes @ 0x480402A8) - Data: 00 00 00 00  returns 0x00 (0001ms, 0346ms total)
T336C 000:685 JLINK_ReadMem (0x48040300, 0x0008 Bytes, ...) -- CPU_ReadMem(8 bytes @ 0x48040300) - Data: 00 00 00 00 00 00 00 00  returns 0x00 (0001ms, 0347ms total)
T336C 000:686 JLINK_ReadMem (0x48040308, 0x0004 Bytes, ...) -- CPU_ReadMem(4 bytes @ 0x48040308) - Data: 00 00 00 00  returns 0x00 (0001ms, 0348ms total)
T336C 000:687 JLINK_ReadMem (0x48040314, 0x0028 Bytes, ...) -- CPU_ReadMem(40 bytes @ 0x48040314) - Data: 00 00 00 00 00 00 00 00 00 00 00 00 00 00 00 00 ...  returns 0x00 (0001ms, 0349ms total)
T336C 000:688 JLINK_ReadMem (0x4804033C, 0x0004 Bytes, ...) -- CPU_ReadMem(4 bytes @ 0x4804033C) - Data: 00 00 00 00  returns 0x00 (0001ms, 0350ms total)
T336C 000:689 JLINK_ReadMem (0x48040370, 0x0004 Bytes, ...) -- CPU_ReadMem(4 bytes @ 0x48040370) - Data: 00 00 00 00  returns 0x00 (0001ms, 0351ms total)
T336C 000:690 JLINK_ReadMem (0x480403A0, 0x0008 Bytes, ...) -- CPU_ReadMem(8 bytes @ 0x480403A0) - Data: 00 00 00 00 00 00 00 00  returns 0x00 (0001ms, 0352ms total)
T336C 000:691 JLINK_ReadMem (0x480403A8, 0x0004 Bytes, ...) -- CPU_ReadMem(4 bytes @ 0x480403A8) - Data: 00 00 00 00  returns 0x00 (0001ms, 0353ms total)
T336C 000:740 JLINK_ReadMem (0x48040400, 0x0008 Bytes, ...) -- CPU_ReadMem(8 bytes @ 0x48040400) - Data: 00 00 00 00 00 00 00 00  returns 0x00 (0001ms, 0354ms total)
T336C 000:741 JLINK_ReadMem (0x48040408, 0x0004 Bytes, ...) -- CPU_ReadMem(4 bytes @ 0x48040408) - Data: 00 00 00 00  returns 0x00 (0001ms, 0355ms total)
T336C 000:742 JLINK_ReadMem (0x48040414, 0x0028 Bytes, ...) -- CPU_ReadMem(40 bytes @ 0x48040414) - Data: 00 00 00 00 00 00 00 00 00 00 00 00 00 00 00 00 ...  returns 0x00 (0001ms, 0356ms total)
T336C 000:743 JLINK_ReadMem (0x4804043C, 0x0004 Bytes, ...) -- CPU_ReadMem(4 bytes @ 0x4804043C) - Data: 00 00 00 00  returns 0x00 (0001ms, 0357ms total)
T336C 000:744 JLINK_ReadMem (0x48040470, 0x0004 Bytes, ...) -- CPU_ReadMem(4 bytes @ 0x48040470) - Data: 00 00 00 00  returns 0x00 (0001ms, 0358ms total)
T336C 000:745 JLINK_ReadMem (0x480404A0, 0x0008 Bytes, ...) -- CPU_ReadMem(8 bytes @ 0x480404A0) - Data: 00 00 00 00 00 00 00 00  returns 0x00 (0001ms, 0359ms total)
T336C 000:746 JLINK_ReadMem (0x480404A8, 0x0004 Bytes, ...) -- CPU_ReadMem(4 bytes @ 0x480404A8) - Data: 00 00 00 00  returns 0x00 (0001ms, 0360ms total)
T336C 000:792 JLINK_ReadMem (0x40040000, 0x0004 Bytes, ...) -- CPU_ReadMem(4 bytes @ 0x40040000) - Data: 00 00 00 00  returns 0x00 (0001ms, 0361ms total)
T336C 000:793 JLINK_ReadMem (0x40040010, 0x000C Bytes, ...) -- CPU_ReadMem(12 bytes @ 0x40040010) - Data: 00 00 00 00 00 00 00 00 00 00 00 00  returns 0x00 (0001ms, 0362ms total)
T336C 000:794 JLINK_ReadMem (0x4004001C, 0x0004 Bytes, ...) -- CPU_ReadMem(4 bytes @ 0x4004001C) - Data: 00 00 10 00  returns 0x00 (0001ms, 0363ms total)
T336C 000:795 JLINK_ReadMem (0x40040024, 0x0004 Bytes, ...) -- CPU_ReadMem(4 bytes @ 0x40040024) - Data: 1E 4C 00 00  returns 0x00 (0001ms, 0364ms total)
T336C 000:796 JLINK_ReadMem (0x40040040, 0x0004 Bytes, ...) -- CPU_ReadMem(4 bytes @ 0x40040040) - Data: 00 00 00 00  returns 0x00 (0001ms, 0365ms total)
T336C 000:797 JLINK_ReadMem (0x40040044, 0x0004 Bytes, ...) -- CPU_ReadMem(4 bytes @ 0x40040044) - Data: 00 00 00 00  returns 0x00 (0001ms, 0366ms total)
T336C 000:798 JLINK_ReadMem (0x40040060, 0x0004 Bytes, ...) -- CPU_ReadMem(4 bytes @ 0x40040060) - Data: 1E 0C 00 00  returns 0x00 (0001ms, 0367ms total)
T336C 000:799 JLINK_ReadMem (0x40040070, 0x0004 Bytes, ...) -- CPU_ReadMem(4 bytes @ 0x40040070) - Data: 00 00 00 00  returns 0x00 (0001ms, 0368ms total)
T336C 000:800 JLINK_ReadMem (0x40040074, 0x0004 Bytes, ...) -- CPU_ReadMem(4 bytes @ 0x40040074) - Data: 00 00 00 00  returns 0x00 (0001ms, 0369ms total)
T336C 000:846 JLINK_ReadMem (0x40040100, 0x0004 Bytes, ...) -- CPU_ReadMem(4 bytes @ 0x40040100) - Data: 00 00 00 00  returns 0x00 (0001ms, 0370ms total)
T336C 000:847 JLINK_ReadMem (0x40040110, 0x0004 Bytes, ...) -- CPU_ReadMem(4 bytes @ 0x40040110) - Data: 00 00 00 00  returns 0x00 (0001ms, 0371ms total)
T336C 000:848 JLINK_ReadMem (0x40040114, 0x0004 Bytes, ...) -- CPU_ReadMem(4 bytes @ 0x40040114) - Data: 00 00 00 00  returns 0x00 (0001ms, 0372ms total)
T336C 000:849 JLINK_ReadMem (0x40040124, 0x0004 Bytes, ...) -- CPU_ReadMem(4 bytes @ 0x40040124) - Data: 70 00 00 00  returns 0x00 (0001ms, 0373ms total)
T336C 000:850 JLINK_ReadMem (0x40040140, 0x0004 Bytes, ...) -- CPU_ReadMem(4 bytes @ 0x40040140) - Data: 00 00 00 00  returns 0x00 (0001ms, 0374ms total)
T336C 000:851 JLINK_ReadMem (0x40040160, 0x0004 Bytes, ...) -- CPU_ReadMem(4 bytes @ 0x40040160) - Data: 70 00 00 00  returns 0x00 (0001ms, 0375ms total)
T336C 000:852 JLINK_ReadMem (0x40040170, 0x0004 Bytes, ...) -- CPU_ReadMem(4 bytes @ 0x40040170) - Data: 00 00 00 00  returns 0x00 (0001ms, 0376ms total)
T336C 000:853 JLINK_ReadMem (0x40040174, 0x0004 Bytes, ...) -- CPU_ReadMem(4 bytes @ 0x40040174) - Data: 00 00 00 00  returns 0x00 (0001ms, 0377ms total)
T336C 000:900 JLINK_ReadMem (0x40040200, 0x0004 Bytes, ...) -- CPU_ReadMem(4 bytes @ 0x40040200) - Data: 00 00 00 00  returns 0x00 (0001ms, 0378ms total)
T336C 000:901 JLINK_ReadMem (0x40040210, 0x0008 Bytes, ...) -- CPU_ReadMem(8 bytes @ 0x40040210) - Data: 00 00 00 00 00 00 00 00  returns 0x00 (0001ms, 0379ms total)
T336C 000:902 JLINK_ReadMem (0x40040218, 0x0004 Bytes, ...) -- CPU_ReadMem(4 bytes @ 0x40040218) - Data: 00 00 00 00  returns 0x00 (0001ms, 0380ms total)
T336C 000:903 JLINK_ReadMem (0x40040224, 0x0004 Bytes, ...) -- CPU_ReadMem(4 bytes @ 0x40040224) - Data: FF 0F 00 00  returns 0x00 (0001ms, 0381ms total)
T336C 000:904 JLINK_ReadMem (0x40040240, 0x0004 Bytes, ...) -- CPU_ReadMem(4 bytes @ 0x40040240) - Data: 00 00 00 00  returns 0x00 (0001ms, 0382ms total)
T336C 000:905 JLINK_ReadMem (0x40040244, 0x0004 Bytes, ...) -- CPU_ReadMem(4 bytes @ 0x40040244) - Data: 00 00 00 00  returns 0x00 (0001ms, 0383ms total)
T336C 000:906 JLINK_ReadMem (0x40040260, 0x0004 Bytes, ...) -- CPU_ReadMem(4 bytes @ 0x40040260) - Data: FF 0F 00 00  returns 0x00 (0001ms, 0384ms total)
T336C 000:907 JLINK_ReadMem (0x40040270, 0x0004 Bytes, ...) -- CPU_ReadMem(4 bytes @ 0x40040270) - Data: 00 00 00 00  returns 0x00 (0001ms, 0385ms total)
T336C 000:908 JLINK_ReadMem (0x40040274, 0x0004 Bytes, ...) -- CPU_ReadMem(4 bytes @ 0x40040274) - Data: 00 00 00 00  returns 0x00 (0001ms, 0386ms total)
T336C 002:572 JLINK_ReadMem (0x48040200, 0x0008 Bytes, ...) -- CPU_ReadMem(8 bytes @ 0x48040200) - Data: 00 00 00 00 00 00 00 00  returns 0x00 (0002ms, 0388ms total)
T336C 002:574 JLINK_ReadMem (0x48040208, 0x0004 Bytes, ...) -- CPU_ReadMem(4 bytes @ 0x48040208) - Data: 00 00 00 00  returns 0x00 (0001ms, 0389ms total)
T336C 002:575 JLINK_ReadMem (0x48040214, 0x0028 Bytes, ...) -- CPU_ReadMem(40 bytes @ 0x48040214) - Data: 00 00 00 00 00 00 00 00 00 00 00 00 00 00 00 00 ...  returns 0x00 (0001ms, 0390ms total)
T336C 002:576 JLINK_ReadMem (0x4804023C, 0x0004 Bytes, ...) -- CPU_ReadMem(4 bytes @ 0x4804023C) - Data: 00 00 00 00  returns 0x00 (0001ms, 0391ms total)
T336C 002:577 JLINK_ReadMem (0x48040270, 0x0004 Bytes, ...) -- CPU_ReadMem(4 bytes @ 0x48040270) - Data: 00 00 00 00  returns 0x00 (0001ms, 0392ms total)
T336C 002:578 JLINK_ReadMem (0x480402A0, 0x0008 Bytes, ...) -- CPU_ReadMem(8 bytes @ 0x480402A0) - Data: 00 00 00 00 00 00 00 00  returns 0x00 (0001ms, 0393ms total)
T336C 002:579 JLINK_ReadMem (0x480402A8, 0x0004 Bytes, ...) -- CPU_ReadMem(4 bytes @ 0x480402A8) - Data: 00 00 00 00  returns 0x00 (0001ms, 0394ms total)
T336C 002:580 JLINK_ReadMem (0x48040400, 0x0008 Bytes, ...) -- CPU_ReadMem(8 bytes @ 0x48040400) - Data: 00 00 00 00 00 00 00 00  returns 0x00 (0002ms, 0396ms total)
T336C 002:582 JLINK_ReadMem (0x48040408, 0x0004 Bytes, ...) -- CPU_ReadMem(4 bytes @ 0x48040408) - Data: 00 00 00 00  returns 0x00 (0001ms, 0397ms total)
T336C 002:583 JLINK_ReadMem (0x48040414, 0x0028 Bytes, ...) -- CPU_ReadMem(40 bytes @ 0x48040414) - Data: 00 00 00 00 00 00 00 00 00 00 00 00 00 00 00 00 ...  returns 0x00 (0001ms, 0398ms total)
T336C 002:584 JLINK_ReadMem (0x4804043C, 0x0004 Bytes, ...) -- CPU_ReadMem(4 bytes @ 0x4804043C) - Data: 00 00 00 00  returns 0x00 (0001ms, 0399ms total)
T336C 002:585 JLINK_ReadMem (0x48040470, 0x0004 Bytes, ...) -- CPU_ReadMem(4 bytes @ 0x48040470) - Data: 00 00 00 00  returns 0x00 (0001ms, 0400ms total)
T336C 002:586 JLINK_ReadMem (0x480404A0, 0x0008 Bytes, ...) -- CPU_ReadMem(8 bytes @ 0x480404A0) - Data: 00 00 00 00 00 00 00 00  returns 0x00 (0001ms, 0401ms total)
T336C 002:587 JLINK_ReadMem (0x480404A8, 0x0004 Bytes, ...) -- CPU_ReadMem(4 bytes @ 0x480404A8) - Data: 00 00 00 00  returns 0x00 (0001ms, 0402ms total)
T336C 002:588 JLINK_ReadMem (0x48040300, 0x0008 Bytes, ...) -- CPU_ReadMem(8 bytes @ 0x48040300) - Data: 00 00 00 00 00 00 00 00  returns 0x00 (0002ms, 0404ms total)
T336C 002:590 JLINK_ReadMem (0x48040308, 0x0004 Bytes, ...) -- CPU_ReadMem(4 bytes @ 0x48040308) - Data: 00 00 00 00  returns 0x00 (0001ms, 0405ms total)
T336C 002:591 JLINK_ReadMem (0x48040314, 0x0028 Bytes, ...) -- CPU_ReadMem(40 bytes @ 0x48040314) - Data: 00 00 00 00 00 00 00 00 00 00 00 00 00 00 00 00 ...  returns 0x00 (0001ms, 0406ms total)
T336C 002:592 JLINK_ReadMem (0x4804033C, 0x0004 Bytes, ...) -- CPU_ReadMem(4 bytes @ 0x4804033C) - Data: 00 00 00 00  returns 0x00 (0001ms, 0407ms total)
T336C 002:593 JLINK_ReadMem (0x48040370, 0x0004 Bytes, ...) -- CPU_ReadMem(4 bytes @ 0x48040370) - Data: 00 00 00 00  returns 0x00 (0001ms, 0408ms total)
T336C 002:594 JLINK_ReadMem (0x480403A0, 0x0008 Bytes, ...) -- CPU_ReadMem(8 bytes @ 0x480403A0) - Data: 00 00 00 00 00 00 00 00  returns 0x00 (0001ms, 0409ms total)
T336C 002:595 JLINK_ReadMem (0x480403A8, 0x0004 Bytes, ...) -- CPU_ReadMem(4 bytes @ 0x480403A8) - Data: 00 00 00 00  returns 0x00 (0001ms, 0410ms total)
T336C 002:596 JLINK_ReadMem (0x40040200, 0x0004 Bytes, ...) -- CPU_ReadMem(4 bytes @ 0x40040200) - Data: 00 00 00 00  returns 0x00 (0001ms, 0411ms total)
T336C 002:597 JLINK_ReadMem (0x40040210, 0x0008 Bytes, ...) -- CPU_ReadMem(8 bytes @ 0x40040210) - Data: 00 00 00 00 00 00 00 00  returns 0x00 (0001ms, 0412ms total)
T336C 002:598 JLINK_ReadMem (0x40040218, 0x0004 Bytes, ...) -- CPU_ReadMem(4 bytes @ 0x40040218) - Data: 00 00 00 00  returns 0x00 (0001ms, 0413ms total)
T336C 002:599 JLINK_ReadMem (0x40040224, 0x0004 Bytes, ...) -- CPU_ReadMem(4 bytes @ 0x40040224) - Data: FF 0F 00 00  returns 0x00 (0001ms, 0414ms total)
T336C 002:600 JLINK_ReadMem (0x40040240, 0x0004 Bytes, ...) -- CPU_ReadMem(4 bytes @ 0x40040240) - Data: 00 00 00 00  returns 0x00 (0001ms, 0415ms total)
T336C 002:601 JLINK_ReadMem (0x40040244, 0x0004 Bytes, ...) -- CPU_ReadMem(4 bytes @ 0x40040244) - Data: 00 00 00 00  returns 0x00 (0001ms, 0416ms total)
T336C 002:602 JLINK_ReadMem (0x40040260, 0x0004 Bytes, ...) -- CPU_ReadMem(4 bytes @ 0x40040260) - Data: FF 0F 00 00  returns 0x00 (0001ms, 0417ms total)
T336C 002:603 JLINK_ReadMem (0x40040270, 0x0004 Bytes, ...) -- CPU_ReadMem(4 bytes @ 0x40040270) - Data: 00 00 00 00  returns 0x00 (0001ms, 0418ms total)
T336C 002:604 JLINK_ReadMem (0x40040274, 0x0004 Bytes, ...) -- CPU_ReadMem(4 bytes @ 0x40040274) - Data: 00 00 00 00  returns 0x00 (0001ms, 0419ms total)
T336C 002:605 JLINK_ReadMem (0x40040100, 0x0004 Bytes, ...) -- CPU_ReadMem(4 bytes @ 0x40040100) - Data: 00 00 00 00  returns 0x00 (0001ms, 0420ms total)
T336C 002:606 JLINK_ReadMem (0x40040110, 0x0004 Bytes, ...) -- CPU_ReadMem(4 bytes @ 0x40040110) - Data: 00 00 00 00  returns 0x00 (0001ms, 0421ms total)
T336C 002:607 JLINK_ReadMem (0x40040114, 0x0004 Bytes, ...) -- CPU_ReadMem(4 bytes @ 0x40040114) - Data: 00 00 00 00  returns 0x00 (0001ms, 0422ms total)
T336C 002:608 JLINK_ReadMem (0x40040124, 0x0004 Bytes, ...) -- CPU_ReadMem(4 bytes @ 0x40040124) - Data: 70 00 00 00  returns 0x00 (0001ms, 0423ms total)
T336C 002:609 JLINK_ReadMem (0x40040140, 0x0004 Bytes, ...) -- CPU_ReadMem(4 bytes @ 0x40040140) - Data: 00 00 00 00  returns 0x00 (0001ms, 0424ms total)
T336C 002:610 JLINK_ReadMem (0x40040160, 0x0004 Bytes, ...) -- CPU_ReadMem(4 bytes @ 0x40040160) - Data: 70 00 00 00  returns 0x00 (0001ms, 0425ms total)
T336C 002:611 JLINK_ReadMem (0x40040170, 0x0004 Bytes, ...) -- CPU_ReadMem(4 bytes @ 0x40040170) - Data: 00 00 00 00  returns 0x00 (0001ms, 0426ms total)
T336C 002:612 JLINK_ReadMem (0x40040174, 0x0004 Bytes, ...) -- CPU_ReadMem(4 bytes @ 0x40040174) - Data: 00 00 00 00  returns 0x00 (0001ms, 0427ms total)
T336C 002:613 JLINK_ReadMem (0x48040100, 0x0008 Bytes, ...) -- CPU_ReadMem(8 bytes @ 0x48040100) - Data: 00 00 00 00 00 00 00 00  returns 0x00 (0001ms, 0428ms total)
T336C 002:614 JLINK_ReadMem (0x48040108, 0x0004 Bytes, ...) -- CPU_ReadMem(4 bytes @ 0x48040108) - Data: 00 00 00 00  returns 0x00 (0001ms, 0429ms total)
T336C 002:615 JLINK_ReadMem (0x48040114, 0x0028 Bytes, ...) -- CPU_ReadMem(40 bytes @ 0x48040114) - Data: 00 00 00 00 00 00 00 00 00 00 00 00 00 00 00 00 ...  returns 0x00 (0001ms, 0430ms total)
T336C 002:616 JLINK_ReadMem (0x4804013C, 0x0004 Bytes, ...) -- CPU_ReadMem(4 bytes @ 0x4804013C) - Data: 00 00 00 00  returns 0x00 (0001ms, 0431ms total)
T336C 002:617 JLINK_ReadMem (0x48040170, 0x0004 Bytes, ...) -- CPU_ReadMem(4 bytes @ 0x48040170) - Data: 00 00 00 00  returns 0x00 (0001ms, 0432ms total)
T336C 002:618 JLINK_ReadMem (0x480401A0, 0x0008 Bytes, ...) -- CPU_ReadMem(8 bytes @ 0x480401A0) - Data: 00 00 00 00 00 00 00 00  returns 0x00 (0001ms, 0433ms total)
T336C 002:619 JLINK_ReadMem (0x480401A8, 0x0004 Bytes, ...) -- CPU_ReadMem(4 bytes @ 0x480401A8) - Data: 00 00 00 00  returns 0x00 (0001ms, 0434ms total)
T336C 002:620 JLINK_ReadMem (0x40040000, 0x0004 Bytes, ...) -- CPU_ReadMem(4 bytes @ 0x40040000) - Data: 00 00 00 00  returns 0x00 (0002ms, 0436ms total)
T336C 002:622 JLINK_ReadMem (0x40040010, 0x000C Bytes, ...) -- CPU_ReadMem(12 bytes @ 0x40040010) - Data: 00 00 00 00 00 00 00 00 00 00 00 00  returns 0x00 (0001ms, 0437ms total)
T336C 002:623 JLINK_ReadMem (0x4004001C, 0x0004 Bytes, ...) -- CPU_ReadMem(4 bytes @ 0x4004001C) - Data: 00 00 10 00  returns 0x00 (0001ms, 0438ms total)
T336C 002:624 JLINK_ReadMem (0x40040024, 0x0004 Bytes, ...) -- CPU_ReadMem(4 bytes @ 0x40040024) - Data: 1E 4C 00 00  returns 0x00 (0001ms, 0439ms total)
T336C 002:625 JLINK_ReadMem (0x40040040, 0x0004 Bytes, ...) -- CPU_ReadMem(4 bytes @ 0x40040040) - Data: 00 00 00 00  returns 0x00 (0001ms, 0440ms total)
T336C 002:626 JLINK_ReadMem (0x40040044, 0x0004 Bytes, ...) -- CPU_ReadMem(4 bytes @ 0x40040044) - Data: 00 00 00 00  returns 0x00 (0001ms, 0441ms total)
T336C 002:627 JLINK_ReadMem (0x40040060, 0x0004 Bytes, ...) -- CPU_ReadMem(4 bytes @ 0x40040060) - Data: 1E 0C 00 00  returns 0x00 (0001ms, 0442ms total)
T336C 002:628 JLINK_ReadMem (0x40040070, 0x0004 Bytes, ...) -- CPU_ReadMem(4 bytes @ 0x40040070) - Data: 00 00 00 00  returns 0x00 (0001ms, 0443ms total)
T336C 002:629 JLINK_ReadMem (0x40040074, 0x0004 Bytes, ...) -- CPU_ReadMem(4 bytes @ 0x40040074) - Data: 00 00 00 00  returns 0x00 (0001ms, 0444ms total)
T16EC 002:956 JLINK_Go() -- CPU_ReadMem(4 bytes @ 0xE0001000) -- CPU_WriteMem(4 bytes @ 0xE0001000) -- CPU_WriteMem(4 bytes @ 0xE0001004) (0005ms, 0449ms total)
T16EC 003:062 JLINK_IsHalted()  returns FALSE (0001ms, 0450ms total)
T16EC 003:164 JLINK_IsHalted()  returns FALSE (0001ms, 0450ms total)
T16EC 003:266 JLINK_IsHalted()  returns FALSE (0001ms, 0450ms total)
T16EC 003:368 JLINK_IsHalted()  returns FALSE (0001ms, 0450ms total)
T336C 003:470 JLINK_ReadMem (0x48040200, 0x0008 Bytes, ...) -- CPU is running -- CPU_ReadMem(8 bytes @ 0x48040200) - Data: 00 00 00 00 00 00 00 00  returns 0x00 (0001ms, 0450ms total)
T336C 003:471 JLINK_ReadMem (0x48040208, 0x0004 Bytes, ...) -- CPU is running -- CPU_ReadMem(4 bytes @ 0x48040208) - Data: 00 00 00 00  returns 0x00 (0001ms, 0451ms total)
T336C 003:472 JLINK_ReadMem (0x48040214, 0x0028 Bytes, ...) -- CPU is running -- CPU_ReadMem(40 bytes @ 0x48040214) - Data: 00 00 00 00 00 00 00 00 00 00 00 00 00 00 00 00 ...  returns 0x00 (0001ms, 0452ms total)
T336C 003:473 JLINK_ReadMem (0x4804023C, 0x0004 Bytes, ...) -- CPU is running -- CPU_ReadMem(4 bytes @ 0x4804023C) - Data: 00 00 00 00  returns 0x00 (0001ms, 0453ms total)
T336C 003:474 JLINK_ReadMem (0x48040270, 0x0004 Bytes, ...) -- CPU is running -- CPU_ReadMem(4 bytes @ 0x48040270) - Data: 00 00 00 00  returns 0x00 (0001ms, 0454ms total)
T336C 003:475 JLINK_ReadMem (0x480402A0, 0x0008 Bytes, ...) -- CPU is running -- CPU_ReadMem(8 bytes @ 0x480402A0) - Data: 00 00 00 00 01 00 00 00  returns 0x00 (0001ms, 0455ms total)
T336C 003:476 JLINK_ReadMem (0x480402A8, 0x0004 Bytes, ...) -- CPU is running -- CPU_ReadMem(4 bytes @ 0x480402A8) - Data: 00 00 00 00  returns 0x00 (0001ms, 0456ms total)
T336C 003:478 JLINK_ReadMem (0x48040400, 0x0008 Bytes, ...) -- CPU is running -- CPU_ReadMem(8 bytes @ 0x48040400) - Data: 00 00 00 00 00 00 00 00  returns 0x00 (0001ms, 0457ms total)
T336C 003:479 JLINK_ReadMem (0x48040408, 0x0004 Bytes, ...) -- CPU is running -- CPU_ReadMem(4 bytes @ 0x48040408) - Data: 00 00 00 00  returns 0x00 (0001ms, 0458ms total)
T336C 003:480 JLINK_ReadMem (0x48040414, 0x0028 Bytes, ...) -- CPU is running -- CPU_ReadMem(40 bytes @ 0x48040414) - Data: 00 00 00 00 00 00 00 00 00 00 00 00 00 00 00 00 ...  returns 0x00 (0001ms, 0459ms total)
T336C 003:481 JLINK_ReadMem (0x4804043C, 0x0004 Bytes, ...) -- CPU is running -- CPU_ReadMem(4 bytes @ 0x4804043C) - Data: 00 00 00 00  returns 0x00 (0001ms, 0460ms total)
T336C 003:482 JLINK_ReadMem (0x48040470, 0x0004 Bytes, ...) -- CPU is running -- CPU_ReadMem(4 bytes @ 0x48040470) - Data: 00 00 00 00  returns 0x00 (0001ms, 0461ms total)
T336C 003:483 JLINK_ReadMem (0x480404A0, 0x0008 Bytes, ...) -- CPU is running -- CPU_ReadMem(8 bytes @ 0x480404A0) - Data: 00 00 00 00 01 00 00 00  returns 0x00 (0001ms, 0462ms total)
T336C 003:484 JLINK_ReadMem (0x480404A8, 0x0004 Bytes, ...) -- CPU is running -- CPU_ReadMem(4 bytes @ 0x480404A8) - Data: 01 00 00 00  returns 0x00 (0001ms, 0463ms total)
T336C 003:487 JLINK_ReadMem (0x48040300, 0x0008 Bytes, ...) -- CPU is running -- CPU_ReadMem(8 bytes @ 0x48040300) - Data: 00 00 00 00 00 00 00 00  returns 0x00 (0001ms, 0464ms total)
T336C 003:488 JLINK_ReadMem (0x48040308, 0x0004 Bytes, ...) -- CPU is running -- CPU_ReadMem(4 bytes @ 0x48040308) - Data: 00 00 00 00  returns 0x00 (0001ms, 0465ms total)
T336C 003:489 JLINK_ReadMem (0x48040314, 0x0028 Bytes, ...) -- CPU is running -- CPU_ReadMem(40 bytes @ 0x48040314) - Data: 00 00 00 00 00 00 00 00 00 00 00 00 00 00 00 00 ...  returns 0x00 (0001ms, 0466ms total)
T336C 003:490 JLINK_ReadMem (0x4804033C, 0x0004 Bytes, ...) -- CPU is running -- CPU_ReadMem(4 bytes @ 0x4804033C) - Data: 00 00 00 00  returns 0x00 (0001ms, 0467ms total)
T336C 003:491 JLINK_ReadMem (0x48040370, 0x0004 Bytes, ...) -- CPU is running -- CPU_ReadMem(4 bytes @ 0x48040370) - Data: 00 00 00 00  returns 0x00 (0001ms, 0468ms total)
T336C 003:492 JLINK_ReadMem (0x480403A0, 0x0008 Bytes, ...) -- CPU is running -- CPU_ReadMem(8 bytes @ 0x480403A0) - Data: 00 00 00 00 01 00 00 00  returns 0x00 (0001ms, 0469ms total)
T336C 003:493 JLINK_ReadMem (0x480403A8, 0x0004 Bytes, ...) -- CPU is running -- CPU_ReadMem(4 bytes @ 0x480403A8) - Data: 03 00 00 00  returns 0x00 (0001ms, 0470ms total)
T336C 003:495 JLINK_ReadMem (0x40040200, 0x0004 Bytes, ...) -- CPU is running -- CPU_ReadMem(4 bytes @ 0x40040200) - Data: 00 00 00 00  returns 0x00 (0001ms, 0471ms total)
T336C 003:496 JLINK_ReadMem (0x40040210, 0x0008 Bytes, ...) -- CPU is running -- CPU_ReadMem(8 bytes @ 0x40040210) - Data: 00 00 00 00 00 00 00 00  returns 0x00 (0001ms, 0472ms total)
T336C 003:497 JLINK_ReadMem (0x40040218, 0x0004 Bytes, ...) -- CPU is running -- CPU_ReadMem(4 bytes @ 0x40040218) - Data: 00 00 00 00  returns 0x00 (0001ms, 0473ms total)
T336C 003:498 JLINK_ReadMem (0x40040224, 0x0004 Bytes, ...) -- CPU is running -- CPU_ReadMem(4 bytes @ 0x40040224) - Data: FF 0F 00 00  returns 0x00 (0001ms, 0474ms total)
T336C 003:499 JLINK_ReadMem (0x40040240, 0x0004 Bytes, ...) -- CPU is running -- CPU_ReadMem(4 bytes @ 0x40040240) - Data: 00 00 00 00  returns 0x00 (0001ms, 0475ms total)
T336C 003:500 JLINK_ReadMem (0x40040244, 0x0004 Bytes, ...) -- CPU is running -- CPU_ReadMem(4 bytes @ 0x40040244) - Data: 00 00 00 00  returns 0x00 (0001ms, 0476ms total)
T336C 003:501 JLINK_ReadMem (0x40040260, 0x0004 Bytes, ...) -- CPU is running -- CPU_ReadMem(4 bytes @ 0x40040260) - Data: FF 0F 00 00  returns 0x00 (0001ms, 0477ms total)
T336C 003:502 JLINK_ReadMem (0x40040270, 0x0004 Bytes, ...) -- CPU is running -- CPU_ReadMem(4 bytes @ 0x40040270) - Data: 00 00 00 00  returns 0x00 (0001ms, 0478ms total)
T336C 003:503 JLINK_ReadMem (0x40040274, 0x0004 Bytes, ...) -- CPU is running -- CPU_ReadMem(4 bytes @ 0x40040274) - Data: 00 00 00 00  returns 0x00 (0001ms, 0479ms total)
T336C 003:505 JLINK_ReadMem (0x40040100, 0x0004 Bytes, ...) -- CPU is running -- CPU_ReadMem(4 bytes @ 0x40040100) - Data: 00 00 00 00  returns 0x00 (0001ms, 0480ms total)
T336C 003:506 JLINK_ReadMem (0x40040110, 0x0004 Bytes, ...) -- CPU is running -- CPU_ReadMem(4 bytes @ 0x40040110) - Data: 80 80 00 00  returns 0x00 (0001ms, 0481ms total)
T336C 003:507 JLINK_ReadMem (0x40040114, 0x0004 Bytes, ...) -- CPU is running -- CPU_ReadMem(4 bytes @ 0x40040114) - Data: 00 00 00 00  returns 0x00 (0001ms, 0482ms total)
T336C 003:508 JLINK_ReadMem (0x40040124, 0x0004 Bytes, ...) -- CPU is running -- CPU_ReadMem(4 bytes @ 0x40040124) - Data: 70 00 00 00  returns 0x00 (0001ms, 0483ms total)
T336C 003:509 JLINK_ReadMem (0x40040140, 0x0004 Bytes, ...) -- CPU is running -- CPU_ReadMem(4 bytes @ 0x40040140) - Data: 00 00 00 00  returns 0x00 (0001ms, 0484ms total)
T336C 003:510 JLINK_ReadMem (0x40040160, 0x0004 Bytes, ...) -- CPU is running -- CPU_ReadMem(4 bytes @ 0x40040160) - Data: 70 00 00 00  returns 0x00 (0001ms, 0485ms total)
T336C 003:511 JLINK_ReadMem (0x40040170, 0x0004 Bytes, ...) -- CPU is running -- CPU_ReadMem(4 bytes @ 0x40040170) - Data: 00 00 00 00  returns 0x00 (0001ms, 0486ms total)
T336C 003:512 JLINK_ReadMem (0x40040174, 0x0004 Bytes, ...) -- CPU is running -- CPU_ReadMem(4 bytes @ 0x40040174) - Data: 00 00 00 00  returns 0x00 (0001ms, 0487ms total)
T336C 003:514 JLINK_ReadMem (0x48040100, 0x0008 Bytes, ...) -- CPU is running -- CPU_ReadMem(8 bytes @ 0x48040100) - Data: 00 00 00 00 00 00 00 00  returns 0x00 (0001ms, 0488ms total)
T336C 003:515 JLINK_ReadMem (0x48040108, 0x0004 Bytes, ...) -- CPU is running -- CPU_ReadMem(4 bytes @ 0x48040108) - Data: 00 00 00 00  returns 0x00 (0001ms, 0489ms total)
T336C 003:516 JLINK_ReadMem (0x48040114, 0x0028 Bytes, ...) -- CPU is running -- CPU_ReadMem(40 bytes @ 0x48040114) - Data: 00 00 00 00 00 00 00 00 00 00 00 00 00 00 00 00 ...  returns 0x00 (0001ms, 0490ms total)
T336C 003:517 JLINK_ReadMem (0x4804013C, 0x0004 Bytes, ...) -- CPU is running -- CPU_ReadMem(4 bytes @ 0x4804013C) - Data: 00 00 00 00  returns 0x00 (0001ms, 0491ms total)
T336C 003:518 JLINK_ReadMem (0x48040170, 0x0004 Bytes, ...) -- CPU is running -- CPU_ReadMem(4 bytes @ 0x48040170) - Data: 00 00 00 00  returns 0x00 (0001ms, 0492ms total)
T336C 003:519 JLINK_ReadMem (0x480401A0, 0x0008 Bytes, ...) -- CPU is running -- CPU_ReadMem(8 bytes @ 0x480401A0) - Data: 00 00 00 00 01 00 00 00  returns 0x00 (0001ms, 0493ms total)
T336C 003:520 JLINK_ReadMem (0x480401A8, 0x0004 Bytes, ...) -- CPU is running -- CPU_ReadMem(4 bytes @ 0x480401A8) - Data: 02 00 00 00  returns 0x00 (0001ms, 0494ms total)
T336C 003:522 JLINK_ReadMem (0x40040000, 0x0004 Bytes, ...) -- CPU is running -- CPU_ReadMem(4 bytes @ 0x40040000) - Data: 00 00 00 00  returns 0x00 (0001ms, 0495ms total)
T336C 003:523 JLINK_ReadMem (0x40040010, 0x000C Bytes, ...) -- CPU is running -- CPU_ReadMem(12 bytes @ 0x40040010) - Data: 00 00 00 00 00 00 00 00 00 00 00 00  returns 0x00 (0001ms, 0496ms total)
T336C 003:524 JLINK_ReadMem (0x4004001C, 0x0004 Bytes, ...) -- CPU is running -- CPU_ReadMem(4 bytes @ 0x4004001C) - Data: 00 00 10 00  returns 0x00 (0001ms, 0497ms total)
T336C 003:525 JLINK_ReadMem (0x40040024, 0x0004 Bytes, ...) -- CPU is running -- CPU_ReadMem(4 bytes @ 0x40040024) - Data: 1E 4C 00 00  returns 0x00 (0001ms, 0498ms total)
T336C 003:526 JLINK_ReadMem (0x40040040, 0x0004 Bytes, ...) -- CPU is running -- CPU_ReadMem(4 bytes @ 0x40040040) - Data: 00 00 00 00  returns 0x00 (0001ms, 0499ms total)
T336C 003:527 JLINK_ReadMem (0x40040044, 0x0004 Bytes, ...) -- CPU is running -- CPU_ReadMem(4 bytes @ 0x40040044) - Data: 00 00 00 00  returns 0x00 (0001ms, 0500ms total)
T336C 003:528 JLINK_ReadMem (0x40040060, 0x0004 Bytes, ...) -- CPU is running -- CPU_ReadMem(4 bytes @ 0x40040060) - Data: 1E 0C 00 00  returns 0x00 (0001ms, 0501ms total)
T336C 003:529 JLINK_ReadMem (0x40040070, 0x0004 Bytes, ...) -- CPU is running -- CPU_ReadMem(4 bytes @ 0x40040070) - Data: 00 00 00 00  returns 0x00 (0001ms, 0502ms total)
T336C 003:530 JLINK_ReadMem (0x40040074, 0x0004 Bytes, ...) -- CPU is running -- CPU_ReadMem(4 bytes @ 0x40040074) - Data: 00 00 00 00  returns 0x00 (0001ms, 0503ms total)
T16EC 003:532 JLINK_IsHalted()  returns FALSE (0001ms, 0504ms total)
T16EC 003:634 JLINK_IsHalted()  returns FALSE (0001ms, 0504ms total)
T16EC 003:736 JLINK_IsHalted()  returns FALSE (0001ms, 0504ms total)
T16EC 003:838 JLINK_IsHalted()  returns FALSE (0000ms, 0503ms total)
T16EC 003:939 JLINK_IsHalted()  returns FALSE (0001ms, 0504ms total)
T336C 004:043 JLINK_ReadMem (0x48040200, 0x0008 Bytes, ...) -- CPU is running -- CPU_ReadMem(8 bytes @ 0x48040200) - Data: 00 00 00 00 00 00 00 00  returns 0x00 (0001ms, 0504ms total)
T336C 004:044 JLINK_ReadMem (0x48040208, 0x0004 Bytes, ...) -- CPU is running -- CPU_ReadMem(4 bytes @ 0x48040208) - Data: 00 00 00 00  returns 0x00 (0001ms, 0505ms total)
T336C 004:045 JLINK_ReadMem (0x48040214, 0x0028 Bytes, ...) -- CPU is running -- CPU_ReadMem(40 bytes @ 0x48040214) - Data: 00 00 00 00 00 00 00 00 00 00 00 00 00 00 00 00 ...  returns 0x00 (0001ms, 0506ms total)
T336C 004:046 JLINK_ReadMem (0x4804023C, 0x0004 Bytes, ...) -- CPU is running -- CPU_ReadMem(4 bytes @ 0x4804023C) - Data: 00 00 00 00  returns 0x00 (0001ms, 0507ms total)
T336C 004:047 JLINK_ReadMem (0x48040270, 0x0004 Bytes, ...) -- CPU is running -- CPU_ReadMem(4 bytes @ 0x48040270) - Data: 00 00 00 00  returns 0x00 (0001ms, 0508ms total)
T336C 004:048 JLINK_ReadMem (0x480402A0, 0x0008 Bytes, ...) -- CPU is running -- CPU_ReadMem(8 bytes @ 0x480402A0) - Data: 00 00 00 00 01 00 00 00  returns 0x00 (0001ms, 0509ms total)
T336C 004:049 JLINK_ReadMem (0x480402A8, 0x0004 Bytes, ...) -- CPU is running -- CPU_ReadMem(4 bytes @ 0x480402A8) - Data: 00 00 00 00  returns 0x00 (0001ms, 0510ms total)
T336C 004:050 JLINK_ReadMem (0x48040400, 0x0008 Bytes, ...) -- CPU is running -- CPU_ReadMem(8 bytes @ 0x48040400) - Data: 00 00 00 00 00 00 00 00  returns 0x00 (0002ms, 0512ms total)
T336C 004:052 JLINK_ReadMem (0x48040408, 0x0004 Bytes, ...) -- CPU is running -- CPU_ReadMem(4 bytes @ 0x48040408) - Data: 00 00 00 00  returns 0x00 (0001ms, 0513ms total)
T336C 004:053 JLINK_ReadMem (0x48040414, 0x0028 Bytes, ...) -- CPU is running -- CPU_ReadMem(40 bytes @ 0x48040414) - Data: 00 00 00 00 00 00 00 00 00 00 00 00 00 00 00 00 ...  returns 0x00 (0001ms, 0514ms total)
T336C 004:054 JLINK_ReadMem (0x4804043C, 0x0004 Bytes, ...) -- CPU is running -- CPU_ReadMem(4 bytes @ 0x4804043C) - Data: 00 00 00 00  returns 0x00 (0001ms, 0515ms total)
T336C 004:055 JLINK_ReadMem (0x48040470, 0x0004 Bytes, ...) -- CPU is running -- CPU_ReadMem(4 bytes @ 0x48040470) - Data: 00 00 00 00  returns 0x00 (0001ms, 0516ms total)
T336C 004:056 JLINK_ReadMem (0x480404A0, 0x0008 Bytes, ...) -- CPU is running -- CPU_ReadMem(8 bytes @ 0x480404A0) - Data: 00 00 00 00 01 00 00 00  returns 0x00 (0001ms, 0517ms total)
T336C 004:057 JLINK_ReadMem (0x480404A8, 0x0004 Bytes, ...) -- CPU is running -- CPU_ReadMem(4 bytes @ 0x480404A8) - Data: 01 00 00 00  returns 0x00 (0001ms, 0518ms total)
T336C 004:059 JLINK_ReadMem (0x48040300, 0x0008 Bytes, ...) -- CPU is running -- CPU_ReadMem(8 bytes @ 0x48040300) - Data: 00 00 00 00 00 00 00 00  returns 0x00 (0001ms, 0519ms total)
T336C 004:060 JLINK_ReadMem (0x48040308, 0x0004 Bytes, ...) -- CPU is running -- CPU_ReadMem(4 bytes @ 0x48040308) - Data: 00 00 00 00  returns 0x00 (0001ms, 0520ms total)
T336C 004:061 JLINK_ReadMem (0x48040314, 0x0028 Bytes, ...) -- CPU is running -- CPU_ReadMem(40 bytes @ 0x48040314) - Data: 00 00 00 00 00 00 00 00 00 00 00 00 00 00 00 00 ...  returns 0x00 (0001ms, 0521ms total)
T336C 004:062 JLINK_ReadMem (0x4804033C, 0x0004 Bytes, ...) -- CPU is running -- CPU_ReadMem(4 bytes @ 0x4804033C) - Data: 00 00 00 00  returns 0x00 (0001ms, 0522ms total)
T336C 004:063 JLINK_ReadMem (0x48040370, 0x0004 Bytes, ...) -- CPU is running -- CPU_ReadMem(4 bytes @ 0x48040370) - Data: 00 00 00 00  returns 0x00 (0001ms, 0523ms total)
T336C 004:064 JLINK_ReadMem (0x480403A0, 0x0008 Bytes, ...) -- CPU is running -- CPU_ReadMem(8 bytes @ 0x480403A0) - Data: 00 00 00 00 01 00 00 00  returns 0x00 (0001ms, 0524ms total)
T336C 004:065 JLINK_ReadMem (0x480403A8, 0x0004 Bytes, ...) -- CPU is running -- CPU_ReadMem(4 bytes @ 0x480403A8) - Data: 03 00 00 00  returns 0x00 (0001ms, 0525ms total)
T336C 004:066 JLINK_ReadMem (0x40040200, 0x0004 Bytes, ...) -- CPU is running -- CPU_ReadMem(4 bytes @ 0x40040200) - Data: 00 00 00 00  returns 0x00 (0001ms, 0526ms total)
T336C 004:067 JLINK_ReadMem (0x40040210, 0x0008 Bytes, ...) -- CPU is running -- CPU_ReadMem(8 bytes @ 0x40040210) - Data: 00 00 00 00 00 00 00 00  returns 0x00 (0001ms, 0527ms total)
T336C 004:068 JLINK_ReadMem (0x40040218, 0x0004 Bytes, ...) -- CPU is running -- CPU_ReadMem(4 bytes @ 0x40040218) - Data: 00 00 00 00  returns 0x00 (0001ms, 0528ms total)
T336C 004:069 JLINK_ReadMem (0x40040224, 0x0004 Bytes, ...) -- CPU is running -- CPU_ReadMem(4 bytes @ 0x40040224) - Data: FF 0F 00 00  returns 0x00 (0001ms, 0529ms total)
T336C 004:070 JLINK_ReadMem (0x40040240, 0x0004 Bytes, ...) -- CPU is running -- CPU_ReadMem(4 bytes @ 0x40040240) - Data: 00 00 00 00  returns 0x00 (0001ms, 0530ms total)
T336C 004:071 JLINK_ReadMem (0x40040244, 0x0004 Bytes, ...) -- CPU is running -- CPU_ReadMem(4 bytes @ 0x40040244) - Data: 00 00 00 00  returns 0x00 (0001ms, 0531ms total)
T336C 004:072 JLINK_ReadMem (0x40040260, 0x0004 Bytes, ...) -- CPU is running -- CPU_ReadMem(4 bytes @ 0x40040260) - Data: FF 0F 00 00  returns 0x00 (0001ms, 0532ms total)
T336C 004:073 JLINK_ReadMem (0x40040270, 0x0004 Bytes, ...) -- CPU is running -- CPU_ReadMem(4 bytes @ 0x40040270) - Data: 00 00 00 00  returns 0x00 (0001ms, 0533ms total)
T336C 004:074 JLINK_ReadMem (0x40040274, 0x0004 Bytes, ...) -- CPU is running -- CPU_ReadMem(4 bytes @ 0x40040274) - Data: 00 00 00 00  returns 0x00 (0001ms, 0534ms total)
T336C 004:076 JLINK_ReadMem (0x40040100, 0x0004 Bytes, ...) -- CPU is running -- CPU_ReadMem(4 bytes @ 0x40040100) - Data: 00 00 00 00  returns 0x00 (0001ms, 0535ms total)
T336C 004:077 JLINK_ReadMem (0x40040110, 0x0004 Bytes, ...) -- CPU is running -- CPU_ReadMem(4 bytes @ 0x40040110) - Data: 80 80 00 00  returns 0x00 (0001ms, 0536ms total)
T336C 004:078 JLINK_ReadMem (0x40040114, 0x0004 Bytes, ...) -- CPU is running -- CPU_ReadMem(4 bytes @ 0x40040114) - Data: 00 00 00 00  returns 0x00 (0001ms, 0537ms total)
T336C 004:079 JLINK_ReadMem (0x40040124, 0x0004 Bytes, ...) -- CPU is running -- CPU_ReadMem(4 bytes @ 0x40040124) - Data: 70 00 00 00  returns 0x00 (0001ms, 0538ms total)
T336C 004:080 JLINK_ReadMem (0x40040140, 0x0004 Bytes, ...) -- CPU is running -- CPU_ReadMem(4 bytes @ 0x40040140) - Data: 00 00 00 00  returns 0x00 (0001ms, 0539ms total)
T336C 004:081 JLINK_ReadMem (0x40040160, 0x0004 Bytes, ...) -- CPU is running -- CPU_ReadMem(4 bytes @ 0x40040160) - Data: 70 00 00 00  returns 0x00 (0001ms, 0540ms total)
T336C 004:082 JLINK_ReadMem (0x40040170, 0x0004 Bytes, ...) -- CPU is running -- CPU_ReadMem(4 bytes @ 0x40040170) - Data: 00 00 00 00  returns 0x00 (0001ms, 0541ms total)
T336C 004:083 JLINK_ReadMem (0x40040174, 0x0004 Bytes, ...) -- CPU is running -- CPU_ReadMem(4 bytes @ 0x40040174) - Data: 00 00 00 00  returns 0x00 (0001ms, 0542ms total)
T336C 004:085 JLINK_ReadMem (0x48040100, 0x0008 Bytes, ...) -- CPU is running -- CPU_ReadMem(8 bytes @ 0x48040100) - Data: 00 00 00 00 00 00 00 00  returns 0x00 (0001ms, 0543ms total)
T336C 004:086 JLINK_ReadMem (0x48040108, 0x0004 Bytes, ...) -- CPU is running -- CPU_ReadMem(4 bytes @ 0x48040108) - Data: 00 00 00 00  returns 0x00 (0001ms, 0544ms total)
T336C 004:087 JLINK_ReadMem (0x48040114, 0x0028 Bytes, ...) -- CPU is running -- CPU_ReadMem(40 bytes @ 0x48040114) - Data: 00 00 00 00 00 00 00 00 00 00 00 00 00 00 00 00 ...  returns 0x00 (0001ms, 0545ms total)
T336C 004:088 JLINK_ReadMem (0x4804013C, 0x0004 Bytes, ...) -- CPU is running -- CPU_ReadMem(4 bytes @ 0x4804013C) - Data: 00 00 00 00  returns 0x00 (0001ms, 0546ms total)
T336C 004:089 JLINK_ReadMem (0x48040170, 0x0004 Bytes, ...) -- CPU is running -- CPU_ReadMem(4 bytes @ 0x48040170) - Data: 00 00 00 00  returns 0x00 (0001ms, 0547ms total)
T336C 004:090 JLINK_ReadMem (0x480401A0, 0x0008 Bytes, ...) -- CPU is running -- CPU_ReadMem(8 bytes @ 0x480401A0) - Data: 00 00 00 00 01 00 00 00  returns 0x00 (0001ms, 0548ms total)
T336C 004:091 JLINK_ReadMem (0x480401A8, 0x0004 Bytes, ...) -- CPU is running -- CPU_ReadMem(4 bytes @ 0x480401A8) - Data: 02 00 00 00  returns 0x00 (0001ms, 0549ms total)
T336C 004:093 JLINK_ReadMem (0x40040000, 0x0004 Bytes, ...) -- CPU is running -- CPU_ReadMem(4 bytes @ 0x40040000) - Data: 00 00 00 00  returns 0x00 (0001ms, 0550ms total)
T336C 004:094 JLINK_ReadMem (0x40040010, 0x000C Bytes, ...) -- CPU is running -- CPU_ReadMem(12 bytes @ 0x40040010) - Data: 00 00 00 00 00 00 00 00 00 00 00 00  returns 0x00 (0001ms, 0551ms total)
T336C 004:095 JLINK_ReadMem (0x4004001C, 0x0004 Bytes, ...) -- CPU is running -- CPU_ReadMem(4 bytes @ 0x4004001C) - Data: 00 00 10 00  returns 0x00 (0001ms, 0552ms total)
T336C 004:096 JLINK_ReadMem (0x40040024, 0x0004 Bytes, ...) -- CPU is running -- CPU_ReadMem(4 bytes @ 0x40040024) - Data: 1E 4C 00 00  returns 0x00 (0001ms, 0553ms total)
T336C 004:097 JLINK_ReadMem (0x40040040, 0x0004 Bytes, ...) -- CPU is running -- CPU_ReadMem(4 bytes @ 0x40040040) - Data: 00 00 00 00  returns 0x00 (0001ms, 0554ms total)
T336C 004:098 JLINK_ReadMem (0x40040044, 0x0004 Bytes, ...) -- CPU is running -- CPU_ReadMem(4 bytes @ 0x40040044) - Data: 00 00 00 00  returns 0x00 (0001ms, 0555ms total)
T336C 004:099 JLINK_ReadMem (0x40040060, 0x0004 Bytes, ...) -- CPU is running -- CPU_ReadMem(4 bytes @ 0x40040060) - Data: 1E 0C 00 00  returns 0x00 (0001ms, 0556ms total)
T336C 004:100 JLINK_ReadMem (0x40040070, 0x0004 Bytes, ...) -- CPU is running -- CPU_ReadMem(4 bytes @ 0x40040070) - Data: 00 00 00 00  returns 0x00 (0001ms, 0557ms total)
T336C 004:101 JLINK_ReadMem (0x40040074, 0x0004 Bytes, ...) -- CPU is running -- CPU_ReadMem(4 bytes @ 0x40040074) - Data: 00 00 00 00  returns 0x00 (0001ms, 0558ms total)
T16EC 004:103 JLINK_IsHalted()  returns FALSE (0001ms, 0559ms total)
T16EC 004:205 JLINK_IsHalted()  returns FALSE (0000ms, 0558ms total)
T16EC 004:306 JLINK_IsHalted()  returns FALSE (0000ms, 0558ms total)
T16EC 004:407 JLINK_IsHalted()  returns FALSE (0001ms, 0559ms total)
T16EC 004:509 JLINK_IsHalted()  returns FALSE (0001ms, 0559ms total)
T336C 004:611 JLINK_ReadMem (0x48040200, 0x0008 Bytes, ...) -- CPU is running -- CPU_ReadMem(8 bytes @ 0x48040200) - Data: 00 00 00 00 00 00 00 00  returns 0x00 (0001ms, 0559ms total)
T336C 004:612 JLINK_ReadMem (0x48040208, 0x0004 Bytes, ...) -- CPU is running -- CPU_ReadMem(4 bytes @ 0x48040208) - Data: 00 00 00 00  returns 0x00 (0001ms, 0560ms total)
T336C 004:613 JLINK_ReadMem (0x48040214, 0x0028 Bytes, ...) -- CPU is running -- CPU_ReadMem(40 bytes @ 0x48040214) - Data: 00 00 00 00 00 00 00 00 00 00 00 00 00 00 00 00 ...  returns 0x00 (0001ms, 0561ms total)
T336C 004:614 JLINK_ReadMem (0x4804023C, 0x0004 Bytes, ...) -- CPU is running -- CPU_ReadMem(4 bytes @ 0x4804023C) - Data: 00 00 00 00  returns 0x00 (0001ms, 0562ms total)
T336C 004:615 JLINK_ReadMem (0x48040270, 0x0004 Bytes, ...) -- CPU is running -- CPU_ReadMem(4 bytes @ 0x48040270) - Data: 00 00 00 00  returns 0x00 (0001ms, 0563ms total)
T336C 004:616 JLINK_ReadMem (0x480402A0, 0x0008 Bytes, ...) -- CPU is running -- CPU_ReadMem(8 bytes @ 0x480402A0) - Data: 00 00 00 00 01 00 00 00  returns 0x00 (0001ms, 0564ms total)
T336C 004:617 JLINK_ReadMem (0x480402A8, 0x0004 Bytes, ...) -- CPU is running -- CPU_ReadMem(4 bytes @ 0x480402A8) - Data: 00 00 00 00  returns 0x00 (0001ms, 0565ms total)
T336C 004:619 JLINK_ReadMem (0x48040400, 0x0008 Bytes, ...) -- CPU is running -- CPU_ReadMem(8 bytes @ 0x48040400) - Data: 00 00 00 00 00 00 00 00  returns 0x00 (0001ms, 0566ms total)
T336C 004:620 JLINK_ReadMem (0x48040408, 0x0004 Bytes, ...) -- CPU is running -- CPU_ReadMem(4 bytes @ 0x48040408) - Data: 00 00 00 00  returns 0x00 (0001ms, 0567ms total)
T336C 004:621 JLINK_ReadMem (0x48040414, 0x0028 Bytes, ...) -- CPU is running -- CPU_ReadMem(40 bytes @ 0x48040414) - Data: 00 00 00 00 00 00 00 00 00 00 00 00 00 00 00 00 ...  returns 0x00 (0001ms, 0568ms total)
T336C 004:622 JLINK_ReadMem (0x4804043C, 0x0004 Bytes, ...) -- CPU is running -- CPU_ReadMem(4 bytes @ 0x4804043C) - Data: 00 00 00 00  returns 0x00 (0001ms, 0569ms total)
T336C 004:623 JLINK_ReadMem (0x48040470, 0x0004 Bytes, ...) -- CPU is running -- CPU_ReadMem(4 bytes @ 0x48040470) - Data: 00 00 00 00  returns 0x00 (0001ms, 0570ms total)
T336C 004:624 JLINK_ReadMem (0x480404A0, 0x0008 Bytes, ...) -- CPU is running -- CPU_ReadMem(8 bytes @ 0x480404A0) - Data: 00 00 00 00 01 00 00 00  returns 0x00 (0001ms, 0571ms total)
T336C 004:625 JLINK_ReadMem (0x480404A8, 0x0004 Bytes, ...) -- CPU is running -- CPU_ReadMem(4 bytes @ 0x480404A8) - Data: 01 00 00 00  returns 0x00 (0001ms, 0572ms total)
T336C 004:627 JLINK_ReadMem (0x48040300, 0x0008 Bytes, ...) -- CPU is running -- CPU_ReadMem(8 bytes @ 0x48040300) - Data: 00 00 00 00 00 00 00 00  returns 0x00 (0001ms, 0573ms total)
